Time [s],Value,Parity Error,Framing Error
3.543694000000000,O,,
3.544266000000000,K,,
3.544838000000000,\r,,
3.545410000000000,\n,,
3.945656000000000,E,,
3.946228000000000,l,,
3.946800000000000,i,,
3.947372000000000,t,,
3.947944000000000,e,,
3.948516000000000,' ',,
3.949088000000000,2,,
3.949660000000000,4,,
3.950234000000000,' ',,
3.950806000000000,' ',,
3.951378000000000,' ',,
3.951950000000000,' ',,
3.952522000000000,' ',,
3.953094000000000,E,,
3.953666000000000,N,,
3.954238000000000,G,,
3.954810000000000,-,,
3.955382000000000,>,,
3.955954000000000,S,,
3.956526000000000,W,,
3.957098000000000,' ',,
3.957670000000000,V,,
3.958242000000000,4,,
3.958814000000000,.,,
3.959386000000000,0,,
3.959958000000000,2,,
3.960530000000000,.,,
3.961102000000000,0,,
3.961674000000000,1,,
3.962246000000000,L,,
3.962818000000000,S,,
3.963390000000000,1,,
3.963962000000000,\r,,
3.964534000000000,\n,,
4.554362000000000,M,,
4.554934000000000,a,,
4.555506000000000,s,,
4.556078000000000,t,,
4.556650000000000,e,,
4.557222000000000,r,,
4.557794000000000,' ',,
4.558366000000000,' ',,
4.558938000000000,'221',,
4.559510000000000,V,,
4.560082000000000,x,,
4.560654000000000,'1',,
4.561226000000000,'0',,
4.561798000000000,?,,
4.562370000000000,'0',,
4.562942000000000,'0',,
4.563514000000000,'0',,
4.564086000000000,'255',,
4.564658000000000,'255',,
4.565230000000000,'255',,
4.565802000000000,'255',,
4.566374000000000,'135',,
4.566946000000000,'177',,
4.567518000000000,\r,,
4.568092000000000,\n,,
5.135450000000000,' ',,
5.136022000000000,S,,
5.136594000000000,y,,
5.137166000000000,s,,
5.137738000000000,t,,
5.138310000000000,e,,
5.138882000000000,m,,
5.139454000000000,' ',,
5.140026000000000,A,,
5.140598000000000,l,,
5.141170000000000,e,,
5.141742000000000,r,,
5.142314000000000,t,,
5.142886000000000,s,,
5.143458000000000,!,,
5.144030000000000,' ',,
5.144602000000000,1,,
5.145174000000000,2,,
5.145746000000000,:,,
5.146318000000000,4,,
5.146890000000000,5,,
5.147462000000000,.,,
5.148034000000000,5,,
5.148606000000000,6,,
5.149178000000000,' ',,
5.149750000000000,T,,
5.150322000000000,h,,
5.150894000000000,u,,
5.151466000000000,' ',,
5.152040000000000,0,,
5.152612000000000,1,,
5.153184000000000,' ',,
5.153756000000000,\r,,
5.154328000000000,\n,,
5.646732000000000,' ',,
5.647304000000000,S,,
5.647876000000000,y,,
5.648448000000000,s,,
5.649020000000000,t,,
5.649592000000000,e,,
5.650164000000000,m,,
5.650736000000000,' ',,
5.651308000000000,A,,
5.651880000000000,l,,
5.652452000000000,e,,
5.653024000000000,r,,
5.653596000000000,t,,
5.654168000000000,s,,
5.654740000000000,!,,
5.655312000000000,' ',,
5.655884000000000,1,,
5.656456000000000,2,,
5.657028000000000,:,,
5.657600000000000,4,,
5.658172000000000,5,,
5.658744000000000,.,,
5.659316000000000,5,,
5.659888000000000,7,,
5.660460000000000,' ',,
5.661032000000000,T,,
5.661604000000000,h,,
5.662176000000000,u,,
5.662748000000000,' ',,
5.663322000000000,0,,
5.663894000000000,1,,
5.664466000000000,' ',,
5.665038000000000,\r,,
5.665610000000000,\n,,
6.043612000000000,' ',,
6.044184000000000,S,,
6.044756000000000,y,,
6.045328000000000,s,,
6.045900000000000,t,,
6.046472000000000,e,,
6.047044000000000,m,,
6.047616000000000,' ',,
6.048188000000000,A,,
6.048760000000000,l,,
6.049332000000000,e,,
6.049904000000000,r,,
6.050476000000000,t,,
6.051048000000000,s,,
6.051620000000000,!,,
6.052192000000000,' ',,
6.052764000000000,1,,
6.053336000000000,2,,
6.053908000000000,:,,
6.054480000000000,4,,
6.055052000000000,5,,
6.055624000000000,.,,
6.056196000000000,5,,
6.056768000000000,7,,
6.057340000000000,' ',,
6.057912000000000,T,,
6.058484000000000,h,,
6.059056000000000,u,,
6.059628000000000,' ',,
6.060200000000000,0,,
6.060772000000000,1,,
6.061344000000000,' ',,
6.061916000000000,\r,,
6.062488000000000,\n,,
6.441206000000000,' ',,
6.441778000000000,S,,
6.442350000000000,y,,
6.442922000000000,s,,
6.443494000000000,t,,
6.444066000000000,e,,
6.444638000000000,m,,
6.445210000000000,' ',,
6.445782000000000,A,,
6.446354000000000,l,,
6.446926000000000,e,,
6.447498000000000,r,,
6.448070000000000,t,,
6.448642000000000,s,,
6.449214000000000,!,,
6.449786000000000,' ',,
6.450358000000000,1,,
6.450930000000000,2,,
6.451502000000000,:,,
6.452074000000000,4,,
6.452646000000000,5,,
6.453218000000000,.,,
6.453790000000000,5,,
6.454362000000000,7,,
6.454934000000000,' ',,
6.455506000000000,T,,
6.456078000000000,h,,
6.456650000000000,u,,
6.457222000000000,' ',,
6.457794000000000,0,,
6.458366000000000,1,,
6.458938000000000,' ',,
6.459510000000000,\r,,
6.460084000000000,\n,,
7.000182000000000,' ',,
7.000754000000000,S,,
7.001326000000000,y,,
7.001898000000000,s,,
7.002470000000000,t,,
7.003042000000000,e,,
7.003614000000000,m,,
7.004186000000000,' ',,
7.004758000000000,A,,
7.005330000000000,l,,
7.005902000000000,e,,
7.006474000000000,r,,
7.007046000000000,t,,
7.007618000000000,s,,
7.008190000000000,!,,
7.008762000000000,' ',,
7.009334000000000,1,,
7.009906000000000,2,,
7.010478000000000,:,,
7.011050000000000,4,,
7.011622000000000,5,,
7.012194000000000,.,,
7.012766000000000,5,,
7.013338000000000,8,,
7.013910000000000,' ',,
7.014482000000000,T,,
7.015056000000000,h,,
7.015628000000000,u,,
7.016200000000000,' ',,
7.016772000000000,0,,
7.017344000000000,1,,
7.017916000000000,' ',,
7.018488000000000,\r,,
7.019060000000000,\n,,
7.541198000000000,' ',,
7.541770000000000,S,,
7.542342000000000,y,,
7.542914000000000,s,,
7.543486000000000,t,,
7.544058000000000,e,,
7.544630000000000,m,,
7.545202000000000,' ',,
7.545774000000000,A,,
7.546346000000000,l,,
7.546918000000000,e,,
7.547490000000000,r,,
7.548062000000000,t,,
7.548634000000000,s,,
7.549206000000000,!,,
7.549778000000000,' ',,
7.550350000000000,1,,
7.550922000000000,2,,
7.551494000000000,:,,
7.552066000000000,4,,
7.552638000000000,5,,
7.553210000000000,.,,
7.553782000000000,5,,
7.554354000000000,8,,
7.554926000000000,' ',,
7.555498000000000,T,,
7.556070000000000,h,,
7.556642000000000,u,,
7.557214000000000,' ',,
7.557786000000000,0,,
7.558358000000000,1,,
7.558930000000000,' ',,
7.559502000000000,\r,,
7.560074000000000,\n,,
7.942912000000000,' ',,
7.943484000000000,S,,
7.944058000000000,y,,
7.944630000000000,s,,
7.945202000000000,t,,
7.945774000000000,e,,
7.946346000000000,m,,
7.946918000000000,' ',,
7.947490000000000,A,,
7.948062000000000,l,,
7.948634000000000,e,,
7.949206000000000,r,,
7.949778000000000,t,,
7.950350000000000,s,,
7.950922000000000,!,,
7.951494000000000,' ',,
7.952066000000000,1,,
7.952638000000000,2,,
7.953210000000000,:,,
7.953782000000000,4,,
7.954354000000000,5,,
7.954926000000000,.,,
7.955498000000000,5,,
7.956070000000000,9,,
7.956642000000000,' ',,
7.957214000000000,T,,
7.957786000000000,h,,
7.958358000000000,u,,
7.958930000000000,' ',,
7.959502000000000,0,,
7.960074000000000,1,,
7.960646000000000,' ',,
7.961218000000000,\r,,
7.961790000000000,\n,,
8.341404000000001,' ',,
8.341976000000001,S,,
8.342548000000001,y,,
8.343120000000001,s,,
8.343692000000001,t,,
8.344264000000001,e,,
8.344836000000001,m,,
8.345408000000001,' ',,
8.345980000000001,A,,
8.346552000000001,l,,
8.347124000000001,e,,
8.347695999999999,r,,
8.348267999999999,t,,
8.348841999999999,s,,
8.349413999999999,!,,
8.349985999999999,' ',,
8.350557999999999,1,,
8.351129999999999,2,,
8.351702000000000,:,,
8.352274000000000,4,,
8.352846000000000,5,,
8.353418000000000,.,,
8.353990000000000,5,,
8.354562000000000,9,,
8.355134000000000,' ',,
8.355706000000000,T,,
8.356278000000000,h,,
8.356850000000000,u,,
8.357422000000000,' ',,
8.357994000000000,0,,
8.358566000000000,1,,
8.359138000000000,' ',,
8.359710000000000,\r,,
8.360282000000000,\n,,
8.941328000000000,O,,
8.941900000000000,K,,
8.942472000000000,\r,,
8.943044000000000,\n,,
9.441438000000000,' ',,
9.442010000000000,S,,
9.442582000000000,y,,
9.443154000000000,s,,
9.443726000000000,t,,
9.444298000000000,e,,
9.444870000000000,m,,
9.445442000000000,' ',,
9.446014000000000,A,,
9.446586000000000,l,,
9.447158000000000,e,,
9.447730000000000,r,,
9.448302000000000,t,,
9.448874000000000,s,,
9.449448000000000,!,,
9.450020000000000,' ',,
9.450592000000000,' ',,
9.451164000000000,T,,
9.451736000000000,h,,
9.452308000000000,u,,
9.452880000000000,' ',,
9.453452000000000,0,,
9.454024000000000,1,,
9.454596000000000,' ',,
9.455168000000000,F,,
9.455740000000000,e,,
9.456312000000000,b,,
9.456884000000001,' ',,
9.457456000000001,2,,
9.458028000000001,0,,
9.458600000000001,1,,
9.459172000000001,8,,
9.459744000000001,\r,,
9.460316000000001,\n,,
10.041452000000000,' ',,
10.042024000000000,S,,
10.042596000000000,y,,
10.043168000000000,s,,
10.043740000000000,t,,
10.044312000000000,e,,
10.044884000000000,m,,
10.045456000000000,' ',,
10.046028000000000,A,,
10.046600000000000,l,,
10.047172000000000,e,,
10.047744000000000,r,,
10.048316000000000,t,,
10.048890000000000,s,,
10.049462000000000,!,,
10.050034000000000,' ',,
10.050606000000000,' ',,
10.051178000000000,T,,
10.051750000000000,h,,
10.052322000000000,u,,
10.052894000000000,' ',,
10.053466000000000,0,,
10.054038000000000,1,,
10.054610000000000,' ',,
10.055182000000000,F,,
10.055754000000000,e,,
10.056326000000000,b,,
10.056898000000000,' ',,
10.057470000000000,2,,
10.058042000000000,0,,
10.058614000000000,1,,
10.059186000000000,8,,
10.059758000000000,\r,,
10.060330000000000,\n,,
10.441445999999999,O,,
10.442017999999999,K,,
10.442589999999999,\r,,
10.443161999999999,\n,,
11.007175999999999,O,,
11.007747999999999,K,,
11.008319999999999,\r,,
11.008891999999999,\n,,
11.478578000000001,' ',,
11.479150000000001,S,,
11.479722000000001,y,,
11.480294000000001,s,,
11.480866000000001,t,,
11.481438000000001,e,,
11.482010000000001,m,,
11.482582000000001,' ',,
11.483154000000001,A,,
11.483726000000001,l,,
11.484298000000001,e,,
11.484870000000001,r,,
11.485442000000001,t,,
11.486014000000001,s,,
11.486586000000001,!,,
11.487158000000001,' ',,
11.487730000000001,' ',,
11.488301999999999,T,,
11.488873999999999,h,,
11.489445999999999,u,,
11.490017999999999,' ',,
11.490589999999999,0,,
11.491161999999999,1,,
11.491733999999999,' ',,
11.492305999999999,F,,
11.492877999999999,e,,
11.493449999999999,b,,
11.494021999999999,' ',,
11.494593999999999,2,,
11.495165999999999,0,,
11.495737999999999,1,,
11.496309999999999,8,,
11.496881999999999,\r,,
11.497453999999999,\n,,
11.941514000000000,O,,
11.942086000000000,K,,
11.942658000000000,\r,,
11.943230000000000,\n,,
12.445207999999999,N,,
12.445779999999999,o,,
12.446351999999999,' ',,
12.446923999999999,A,,
12.447495999999999,T,,
12.448067999999999,S,,
12.448639999999999,' ',,
12.449211999999999,A,,
12.449783999999999,v,,
12.450355999999999,a,,
12.450927999999999,i,,
12.451499999999999,l,,
12.452071999999999,a,,
12.452643999999999,b,,
12.453215999999999,l,,
12.453787999999999,e,,
12.454359999999999,1,,
12.454931999999999,2,,
12.455503999999999,:,,
12.456075999999999,4,,
12.456647999999999,4,,
12.457220000000000,.,,
12.457792000000000,5,,
12.458364000000000,6,,
12.458936000000000,' ',,
12.459508000000000,T,,
12.460080000000000,h,,
12.460652000000000,u,,
12.461224000000000,' ',,
12.461796000000000,0,,
12.462368000000000,1,,
12.462940000000000,' ',,
12.463512000000000,\r,,
12.464084000000000,\n,,
13.046238000000001,N,,
13.046810000000001,o,,
13.047382000000001,' ',,
13.047955999999999,A,,
13.048527999999999,T,,
13.049099999999999,S,,
13.049671999999999,' ',,
13.050243999999999,A,,
13.050815999999999,v,,
13.051387999999999,a,,
13.051959999999999,i,,
13.052531999999999,l,,
13.053103999999999,a,,
13.053675999999999,b,,
13.054247999999999,l,,
13.054819999999999,e,,
13.055391999999999,1,,
13.055963999999999,2,,
13.056535999999999,:,,
13.057107999999999,4,,
13.057680000000000,6,,
13.058252000000000,.,,
13.058824000000000,0,,
13.059396000000000,4,,
13.059968000000000,' ',,
13.060540000000000,T,,
13.061112000000000,h,,
13.061684000000000,u,,
13.062256000000000,' ',,
13.062828000000000,0,,
13.063400000000000,1,,
13.063972000000000,' ',,
13.064544000000000,\r,,
13.065116000000000,\n,,
13.648128000000000,N,,
13.648700000000000,o,,
13.649272000000000,' ',,
13.649844000000000,A,,
13.650416000000000,T,,
13.650988000000000,S,,
13.651560000000000,' ',,
13.652132000000000,A,,
13.652704000000000,v,,
13.653276000000000,a,,
13.653848000000000,i,,
13.654420000000000,l,,
13.654992000000000,a,,
13.655564000000000,b,,
13.656136000000000,l,,
13.656710000000000,e,,
13.657282000000000,1,,
13.657854000000000,2,,
13.658426000000000,:,,
13.658998000000000,4,,
13.659570000000000,6,,
13.660142000000000,.,,
13.660714000000000,0,,
13.661286000000000,4,,
13.661858000000001,' ',,
13.662430000000001,T,,
13.663002000000001,h,,
13.663574000000001,u,,
13.664146000000001,' ',,
13.664718000000001,0,,
13.665290000000001,1,,
13.665862000000001,' ',,
13.666434000000001,\r,,
13.667006000000001,\n,,
14.341786000000001,Z,,
14.342358000000001,o,,
14.342930000000001,n,,
14.343502000000001,e,,
14.344074000000001,' ',,
14.344645999999999,0,,
14.345217999999999,0,,
14.345789999999999,1,,
14.346361999999999,' ',,
14.346933999999999,T,,
14.347505999999999,a,,
14.348077999999999,m,,
14.348649999999999,p,,
14.349221999999999,e,,
14.349793999999999,r,,
14.350365999999999,' ',,
14.350937999999999,' ',,
14.351509999999999,' ',,
14.352081999999999,' ',,
14.352653999999999,' ',,
14.353225999999999,' ',,
14.353797999999999,' ',,
14.354369999999999,' ',,
14.354941999999999,' ',,
14.355513999999999,' ',,
14.356085999999999,' ',,
14.356657999999999,' ',,
14.357229999999999,' ',,
14.357802000000000,' ',,
14.358374000000000,' ',,
14.358946000000000,' ',,
14.359520000000000,' ',,
14.360092000000000,\r,,
14.360664000000000,\n,,
14.841832000000000,Z,,
14.842404000000000,o,,
14.842976000000000,n,,
14.843548000000000,e,,
14.844120000000000,' ',,
14.844692000000000,0,,
14.845264000000000,0,,
14.845836000000000,2,,
14.846408000000000,' ',,
14.846980000000000,T,,
14.847552000000000,a,,
14.848124000000000,m,,
14.848696000000000,p,,
14.849268000000000,e,,
14.849840000000000,r,,
14.850412000000000,' ',,
14.850984000000000,' ',,
14.851556000000000,' ',,
14.852128000000000,' ',,
14.852700000000000,' ',,
14.853272000000000,' ',,
14.853844000000000,' ',,
14.854416000000001,' ',,
14.854988000000001,' ',,
14.855560000000001,' ',,
14.856132000000001,' ',,
14.856704000000001,' ',,
14.857276000000001,' ',,
14.857848000000001,' ',,
14.858420000000001,' ',,
14.858992000000001,' ',,
14.859564000000001,' ',,
14.860136000000001,\r,,
14.860708000000001,\n,,
15.285912000000000,Z,,
15.286484000000000,o,,
15.287056000000000,n,,
15.287628000000000,e,,
15.288200000000000,' ',,
15.288772000000000,0,,
15.289344000000000,0,,
15.289916000000000,2,,
15.290488000000000,' ',,
15.291060000000000,T,,
15.291632000000000,a,,
15.292204000000000,m,,
15.292776000000000,p,,
15.293348000000000,e,,
15.293920000000000,r,,
15.294492000000000,' ',,
15.295064000000000,' ',,
15.295636000000000,' ',,
15.296208000000000,' ',,
15.296780000000000,' ',,
15.297352000000000,' ',,
15.297924000000000,' ',,
15.298496000000000,' ',,
15.299068000000000,' ',,
15.299640000000000,' ',,
15.300212000000000,' ',,
15.300784000000000,' ',,
15.301356000000000,' ',,
15.301928000000000,' ',,
15.302500000000000,' ',,
15.303072000000000,' ',,
15.303644000000000,' ',,
15.304216000000000,\r,,
15.304788000000000,\n,,
15.746440000000000,O,,
15.747012000000000,K,,
15.747584000000000,\r,,
15.748156000000000,\n,,
16.358660000000000,O,,
16.359231999999999,K,,
16.359804000000000,\r,,
16.360375999999999,\n,,
16.742030000000000,Z,,
16.742602000000002,o,,
16.743174000000000,n,,
16.743746000000002,e,,
16.744318000000000,' ',,
16.744890000000002,0,,
16.745462000000000,0,,
16.746034000000002,4,,
16.746606000000000,' ',,
16.747178000000002,T,,
16.747750000000000,a,,
16.748322000000002,m,,
16.748894000000000,p,,
16.749466000000002,e,,
16.750039999999998,r,,
16.750612000000000,' ',,
16.751183999999999,' ',,
16.751756000000000,' ',,
16.752327999999999,' ',,
16.752900000000000,' ',,
16.753471999999999,' ',,
16.754044000000000,' ',,
16.754615999999999,' ',,
16.755188000000000,' ',,
16.755759999999999,' ',,
16.756332000000000,' ',,
16.756903999999999,' ',,
16.757476000000000,' ',,
16.758047999999999,' ',,
16.758620000000001,' ',,
16.759191999999999,' ',,
16.759764000000001,' ',,
16.760335999999999,\r,,
16.760908000000001,\n,,
17.241916000000000,O,,
17.242490000000000,K,,
17.243061999999998,\r,,
17.243634000000000,\n,,
17.786536000000002,O,,
17.787108000000000,K,,
17.787680000000002,\r,,
17.788253999999998,\n,,
18.260814000000000,Z,,
18.261386000000002,o,,
18.261958000000000,n,,
18.262530000000002,e,,
18.263102000000000,' ',,
18.263674000000002,0,,
18.264246000000000,0,,
18.264818000000002,5,,
18.265391999999999,' ',,
18.265964000000000,T,,
18.266535999999999,a,,
18.267108000000000,m,,
18.267679999999999,p,,
18.268252000000000,e,,
18.268823999999999,r,,
18.269396000000000,' ',,
18.269967999999999,' ',,
18.270540000000000,' ',,
18.271111999999999,' ',,
18.271684000000000,' ',,
18.272255999999999,' ',,
18.272828000000001,' ',,
18.273399999999999,' ',,
18.273972000000001,' ',,
18.274543999999999,' ',,
18.275116000000001,' ',,
18.275687999999999,' ',,
18.276260000000001,' ',,
18.276831999999999,' ',,
18.277404000000001,' ',,
18.277975999999999,' ',,
18.278548000000001,' ',,
18.279119999999999,\r,,
18.279692000000001,\n,,
18.842734000000000,O,,
18.843305999999998,K,,
18.843878000000000,\r,,
18.844449999999998,\n,,
19.321985999999999,O,,
19.322558000000001,K,,
19.323129999999999,\r,,
19.323702000000001,\n,,
19.742229999999999,Y,,
19.742802000000001,E,,
19.743373999999999,S,,
19.743946000000001,' ',,
19.744517999999999,t,,
19.745090000000001,o,,
19.745661999999999,' ',,
19.746236000000000,S,,
19.746808000000001,e,,
19.747380000000000,l,,
19.747952000000002,e,,
19.748524000000000,c,,
19.749096000000002,t,,
19.749668000000000,:,,
19.750240000000002,-,,
19.750812000000000,' ',,
19.751384000000002,Z,,
19.751956000000000,o,,
19.752528000000002,n,,
19.753100000000000,e,,
19.753672000000002,' ',,
19.754244000000000,S,,
19.754816000000002,e,,
19.755388000000000,t,,
19.755960000000002,u,,
19.756532000000000,p,,
19.757104000000002,' ',,
19.757676000000000,' ',,
19.758247999999998,' ',,
19.758820000000000,' ',,
19.759391999999998,' ',,
19.759964000000000,' ',,
19.760535999999998,\r,,
19.761108000000000,\n,,
20.268000000000001,Y,,
20.268571999999999,E,,
20.269144000000001,S,,
20.269715999999999,' ',,
20.270288000000001,t,,
20.270859999999999,o,,
20.271432000000001,' ',,
20.272003999999999,S,,
20.272576000000001,e,,
20.273147999999999,l,,
20.273720000000001,e,,
20.274291999999999,c,,
20.274864000000001,t,,
20.275435999999999,:,,
20.276008000000001,-,,
20.276579999999999,' ',,
20.277152000000001,Z,,
20.277723999999999,o,,
20.278296000000001,n,,
20.278867999999999,e,,
20.279440000000001,' ',,
20.280011999999999,S,,
20.280584000000001,e,,
20.281155999999999,t,,
20.281728000000001,u,,
20.282299999999999,p,,
20.282872000000001,' ',,
20.283443999999999,' ',,
20.284016000000001,' ',,
20.284587999999999,' ',,
20.285160000000001,' ',,
20.285731999999999,' ',,
20.286304000000001,\r,,
20.286875999999999,\n,,
20.842303999999999,Y,,
20.842876000000000,E,,
20.843447999999999,S,,
20.844020000000000,' ',,
20.844591999999999,t,,
20.845164000000000,o,,
20.845735999999999,' ',,
20.846308000000001,S,,
20.846879999999999,e,,
20.847452000000001,l,,
20.848023999999999,e,,
20.848596000000001,c,,
20.849167999999999,t,,
20.849740000000001,:,,
20.850311999999999,-,,
20.850884000000001,' ',,
20.851455999999999,Z,,
20.852028000000001,o,,
20.852599999999999,n,,
20.853172000000001,e,,
20.853743999999999,' ',,
20.854316000000001,S,,
20.854887999999999,e,,
20.855460000000001,t,,
20.856031999999999,u,,
20.856604000000001,p,,
20.857175999999999,' ',,
20.857748000000001,' ',,
20.858319999999999,' ',,
20.858892000000001,' ',,
20.859463999999999,' ',,
20.860037999999999,' ',,
20.860610000000001,\r,,
20.861181999999999,\n,,
21.506682000000001,Y,,
21.507254000000000,E,,
21.507826000000001,S,,
21.508398000000000,' ',,
21.508970000000001,t,,
21.509542000000000,o,,
21.510114000000002,' ',,
21.510686000000000,S,,
21.511258000000002,e,,
